
T1DDC 000:093 SEGGER J-Link V6.00e Log File (0000ms, 0039ms total)
T1DDC 000:093 DLL Compiled: Aug  4 2016 09:37:38 (0000ms, 0039ms total)
T1DDC 000:093 Logging started @ 2018-11-02 12:45 (0000ms, 0039ms total)
T1DDC 000:093 JLINK_SetWarnOutHandler(...) (0000ms, 0039ms total)
T1DDC 000:093 JLINK_OpenEx(...)
Firmware: J-Link V9 compiled Mar  2 2018 17:07:57
Hardware: V9.40
S/N: 59425868
Feature(s): RDI, GDB, FlashDL, FlashBP, JFlash, RDDI  returns O.K. (0031ms, 0070ms total)
T1DDC 000:124 JLINK_SetErrorOutHandler(...) (0000ms, 0070ms total)
T1DDC 000:124 JLINK_ExecCommand("ProjectFile = "E:\Project\多路采集系统\MultipathDataAcquisition\Program\MultipathDataAcquisition\Project\JLinkSettings.ini"", ...). Device "STM32F030R8" selected.  returns 0x00 (0180ms, 0250ms total)
T1DDC 000:304 JLINK_ExecCommand("Device = STM32F030R8Tx", ...). Device "STM32F030R8" selected.  returns 0x00 (0001ms, 0251ms total)
T1DDC 000:305 JLINK_ExecCommand("DisableConnectionTimeout", ...).   returns 0x01 (0000ms, 0251ms total)
T1DDC 000:305 JLINK_GetHardwareVersion()  returns 0x16F30 (0000ms, 0251ms total)
T1DDC 000:305 JLINK_GetDLLVersion()  returns 60005 (0000ms, 0251ms total)
T1DDC 000:305 JLINK_GetFirmwareString(...) (0000ms, 0251ms total)
T1DDC 000:305 JLINK_GetDLLVersion()  returns 60005 (0000ms, 0251ms total)
T1DDC 000:305 JLINK_GetCompileDateTime() (0000ms, 0251ms total)
T1DDC 000:305 JLINK_GetFirmwareString(...) (0000ms, 0251ms total)
T1DDC 000:306 JLINK_GetHardwareVersion()  returns 0x16F30 (0000ms, 0252ms total)
T1DDC 000:306 JLINK_TIF_Select(JLINKARM_TIF_SWD)  returns 0x00 (0004ms, 0256ms total)
T1DDC 000:310 JLINK_SetSpeed(5000) (0001ms, 0257ms total)
T1DDC 000:311 JLINK_GetId() >0x108 TIF>Found SWD-DP with ID 0x0BB11477 >0x0D TIF> >0x28 TIF> >0x0D TIF> >0x28 TIF> >0x0D TIF> >0x28 TIF> >0x0D TIF> >0x28 TIF> >0x0D TIF> >0x21 TIF> >0x0D TIF> >0x28 TIF> >0x0D TIF> >0x28 TIF> >0x0D TIF> >0x28 TIF> >0x0D TIF> >0x21 TIF> >0x0D TIF> >0x21 TIF> >0x0D TIF> >0x28 TIF> >0x0D TIF> >0x21 TIF> >0x0D TIF> >0x21 TIF> >0x0D TIF> >0x28 TIF> >0x0D TIF> >0x21 TIF> >0x0D TIF> >0x21 TIF> >0x0D TIF> >0x28 TIF> >0x0D TIF> >0x28 TIF> >0x0D TIF> >0x28 TIF> >0x0D TIF>
 >0x21 TIF> >0x0D TIF> >0x21 TIF> >0x0D TIF> >0x28 TIF> >0x0D TIF> >0x28 TIF> >0x0D TIF> >0x28 TIF> >0x0D TIF> >0x21 TIF> >0x0D TIF> >0x21 TIF> >0x0D TIF> >0x28 TIF> >0x0D TIF> >0x21 TIF> >0x0D TIF> >0x21 TIF> >0x0D TIF> >0x28 TIF> >0x0D TIF> >0x21 TIF> >0x0D TIF> >0x21 TIF> >0x0D TIF> >0x28 TIF> >0x0D TIF> >0x21 TIF> >0x0D TIF> >0x21 TIF> >0x0D TIF> >0x28 TIF> >0x0D TIF> >0x21 TIF> >0x0D TIF> >0x21 TIF> >0x0D TIF> >0x28 TIF> >0x0D TIF> >0x21 TIF> >0x0D TIF> >0x21 TIF> >0x108 TIF>
Found SWD-DP with ID 0x0BB11477 >0x0D TIF> >0x28 TIF> >0x0D TIF> >0x28 TIF> >0x0D TIF> >0x28 TIF> >0x0D TIF> >0x28 TIF> >0x0D TIF> >0x21 TIF> >0x0D TIF> >0x28 TIF> >0x0D TIF> >0x28 TIF> >0x0D TIF> >0x21 TIF> >0x0D TIF> >0x21 TIF> >0x0D TIF> >0x21 TIF>AP-IDR: 0x04770021, Type: AHB-AP >0x0D TIF> >0x28 TIF> >0x0D TIF> >0x28 TIF> >0x0D TIF> >0x28 TIF> >0x0D TIF> >0x21 TIF> >0x0D TIF> >0x21 TIF> >0x0D TIF> >0x28 TIF> >0x0D TIF> >0x21 TIF> >0x0D TIF> >0x21 TIF>Found Cortex-M0 r0p0, Little endian.
 -- CPU_ReadMem(4 bytes @ 0xE000EDF0) -- CPU_ReadMem(4 bytes @ 0xE0002000)FPUnit: 4 code (BP) slots and 0 literal slots -- CPU_ReadMem(4 bytes @ 0xE000EDFC) -- CPU_ReadMem(4 bytes @ 0xE0001000) -- CPU_WriteMem(4 bytes @ 0xE0001000)CoreSight components:ROMTbl 0 @ E00FF000 -- CPU_ReadMem(16 bytes @ 0xE00FF000) -- CPU_ReadMem(16 bytes @ 0xE000EFF0) -- CPU_ReadMem(16 bytes @ 0xE000EFE0)ROMTbl 0 [0]: FFF0F000, CID: B105E00D, PID: 000BB008 SCS -- CPU_ReadMem(16 bytes @ 0xE0001FF0)
 -- CPU_ReadMem(16 bytes @ 0xE0001FE0)ROMTbl 0 [1]: FFF02000, CID: B105E00D, PID: 000BB00A DWT -- CPU_ReadMem(16 bytes @ 0xE0002FF0) -- CPU_ReadMem(16 bytes @ 0xE0002FE0)ROMTbl 0 [2]: FFF03000, CID: B105E00D, PID: 000BB00B FPB -- CPU_WriteMem(8192 bytes @ 0x20000000) -- CPU_ReadMem(4 bytes @ 0xE0001000) -- CPU_WriteMem(4 bytes @ 0xE0001000) >0x0D TIF> >0x21 TIF>  returns 0x0BB11477 (0178ms, 0435ms total)
T1DDC 000:489 JLINK_GetDLLVersion()  returns 60005 (0000ms, 0435ms total)
T1DDC 000:489 JLINK_CORE_GetFound()  returns 0x60000FF (0000ms, 0435ms total)
T1DDC 000:489 JLINK_GetDebugInfo(0x100) -- Value=0xE00FF000  returns 0x00 (0000ms, 0435ms total)
T1DDC 000:489 JLINK_GetDebugInfo(0x100) -- Value=0xE00FF000  returns 0x00 (0000ms, 0435ms total)
T1DDC 000:489 JLINK_GetDebugInfo(0x101) -- Value=0x00000000  returns 0x00 (0000ms, 0435ms total)
T1DDC 000:489 JLINK_ReadMem (0xE0041FF0, 0x0010 Bytes, ...) -- CPU is running -- CPU_ReadMem(16 bytes @ 0xE0041FF0) - Data: 00 00 00 00 00 00 00 00 00 00 00 00 00 00 00 00  returns 0x00 (0001ms, 0436ms total)
T1DDC 000:490 JLINK_GetDebugInfo(0x102) -- Value=0x00000000  returns 0x00 (0000ms, 0436ms total)
T1DDC 000:490 JLINK_GetDebugInfo(0x103) -- Value=0x00000000  returns 0x00 (0000ms, 0436ms total)
T1DDC 000:490 JLINK_ReadMem (0xE0040FF0, 0x0010 Bytes, ...) -- CPU is running -- CPU_ReadMem(16 bytes @ 0xE0040FF0) - Data: 00 00 00 00 00 00 00 00 00 00 00 00 00 00 00 00  returns 0x00 (0001ms, 0437ms total)
T1DDC 000:491 JLINK_GetDebugInfo(0x104) -- Value=0xE0000000  returns 0x00 (0000ms, 0437ms total)
T1DDC 000:491 JLINK_GetDebugInfo(0x105) -- Value=0xE0001000  returns 0x00 (0000ms, 0437ms total)
T1DDC 000:491 JLINK_GetDebugInfo(0x106) -- Value=0xE0002000  returns 0x00 (0000ms, 0437ms total)
T1DDC 000:491 JLINK_GetDebugInfo(0x107) -- Value=0xE000E000  returns 0x00 (0000ms, 0437ms total)
T1DDC 000:491 JLINK_GetDebugInfo(0x10C) -- Value=0xE000EDF0  returns 0x00 (0000ms, 0437ms total)
T1DDC 000:491 JLINK_ReadMemU32(0xE000ED00, 0x0001 Items, ...) -- CPU is running -- CPU_ReadMem(4 bytes @ 0xE000ED00) - Data: 00 C2 0C 41  returns 0x01 (0001ms, 0438ms total)
T1DDC 000:492 JLINK_SetResetType(JLINKARM_RESET_TYPE_NORMAL)  returns JLINKARM_RESET_TYPE_NORMAL (0000ms, 0438ms total)
T1DDC 000:492 JLINK_Reset() -- CPU_ReadMem(4 bytes @ 0x20000000) -- CPU_WriteMem(4 bytes @ 0x20000000) -- CPU is running -- CPU_WriteMem(4 bytes @ 0xE000EDF0) -- CPU is running -- CPU_WriteMem(4 bytes @ 0xE000EDFC) >0x35 TIF> -- CPU is running -- CPU_WriteMem(4 bytes @ 0xE000ED0C) -- CPU is running -- CPU_ReadMem(4 bytes @ 0xE000EDF0) -- CPU is running -- CPU_ReadMem(4 bytes @ 0xE000EDF0) -- CPU is running -- CPU_ReadMem(4 bytes @ 0xE000EDF0) -- CPU is running -- CPU_WriteMem(4 bytes @ 0xE000EDF0)
 -- CPU is running -- CPU_WriteMem(4 bytes @ 0xE000EDFC) -- CPU is running -- CPU_ReadMem(4 bytes @ 0xE000EDF0) -- CPU_WriteMem(4 bytes @ 0xE0002000) -- CPU_ReadMem(4 bytes @ 0xE000EDFC) -- CPU_ReadMem(4 bytes @ 0xE0001000) -- CPU_WriteMem(4 bytes @ 0xE0001000) (0027ms, 0465ms total)
T1DDC 000:519 JLINK_ReadReg(R15 (PC))  returns 0x0800013C (0000ms, 0465ms total)
T1DDC 000:519 JLINK_ReadReg(XPSR)  returns 0xC1000000 (0000ms, 0465ms total)
T1DDC 000:519 JLINK_Halt()  returns 0x00 (0000ms, 0465ms total)
T1DDC 000:519 JLINK_IsHalted()  returns TRUE (0000ms, 0465ms total)
T1DDC 000:519 JLINK_ReadMemU32(0xE000EDF0, 0x0001 Items, ...) -- CPU_ReadMem(4 bytes @ 0xE000EDF0) - Data: 03 00 03 00  returns 0x01 (0001ms, 0466ms total)
T1DDC 000:520 JLINK_WriteU32(0xE000EDF0, 0xA05F0003) -- CPU_WriteMem(4 bytes @ 0xE000EDF0)  returns 0x00 (0001ms, 0467ms total)
T1DDC 000:521 JLINK_WriteU32(0xE000EDFC, 0x01000000) -- CPU_WriteMem(4 bytes @ 0xE000EDFC)  returns 0x00 (0001ms, 0468ms total)
T1DDC 000:522 JLINK_GetHWStatus(...)  returns 0x00 (0001ms, 0469ms total)
T1DDC 000:523 JLINK_GetNumBPUnits(Type = 0xFFFFFF00)  returns 0x04 (0000ms, 0469ms total)
T1DDC 000:523 JLINK_GetNumBPUnits(Type = 0xF0)  returns 0x2000 (0000ms, 0469ms total)
T1DDC 000:523 JLINK_GetNumWPUnits()  returns 0x02 (0000ms, 0469ms total)
T1DDC 000:523 JLINK_GetSpeed()  returns 0xFA0 (0000ms, 0469ms total)
T1DDC 000:523 JLINK_ReadMemU32(0xE000E004, 0x0001 Items, ...) -- CPU_ReadMem(4 bytes @ 0xE000E004) - Data: 00 00 00 00  returns 0x01 (0001ms, 0470ms total)
T1DDC 000:524 JLINK_ReadReg(R15 (PC))  returns 0x0800013C (0000ms, 0470ms total)
T1DDC 000:524 JLINK_ReadReg(XPSR)  returns 0xC1000000 (0000ms, 0470ms total)
T1DDC 000:598 JLINK_SetResetType(JLINKARM_RESET_TYPE_NORMAL)  returns JLINKARM_RESET_TYPE_NORMAL (0000ms, 0470ms total)
T1DDC 000:598 JLINK_Reset() -- CPU_WriteMem(4 bytes @ 0xE000EDF0) -- CPU_WriteMem(4 bytes @ 0xE000EDFC) >0x35 TIF> -- CPU_WriteMem(4 bytes @ 0xE000ED0C) -- CPU_ReadMem(4 bytes @ 0xE000EDF0) -- CPU_ReadMem(4 bytes @ 0xE000EDF0) -- CPU_WriteMem(4 bytes @ 0xE000EDF0) -- CPU_WriteMem(4 bytes @ 0xE000EDFC) -- CPU is running -- CPU_ReadMem(4 bytes @ 0xE000EDF0) -- CPU_WriteMem(4 bytes @ 0xE0002000) -- CPU_ReadMem(4 bytes @ 0xE000EDFC) -- CPU_ReadMem(4 bytes @ 0xE0001000) -- CPU_WriteMem(4 bytes @ 0xE0001000)
 (0025ms, 0495ms total)
T1DDC 000:623 JLINK_ReadReg(R15 (PC))  returns 0x0800013C (0000ms, 0495ms total)
T1DDC 000:623 JLINK_ReadReg(XPSR)  returns 0xC1000000 (0000ms, 0495ms total)
T1DDC 000:624 JLINK_ReadMem (0x0800013C, 0x003C Bytes, ...) -- CPU_ReadMem(128 bytes @ 0x08000100) -- Updating C cache (128 bytes @ 0x08000100) -- Read from C cache (60 bytes @ 0x0800013C) - Data: 0F 48 80 F3 08 88 0F 48 01 68 09 0E 0E 4A 91 42 ...  returns 0x00 (0001ms, 0496ms total)
T1DDC 000:852 JLINK_ReadMem (0x48000000, 0x0014 Bytes, ...) -- CPU_ReadMem(20 bytes @ 0x48000000) - Data: 00 00 00 28 00 00 00 28 00 00 00 28 00 00 00 28 ...  returns 0x00 (0001ms, 0497ms total)
T1DDC 000:853 JLINK_ReadMem (0x48000014, 0x0004 Bytes, ...) -- CPU_ReadMem(4 bytes @ 0x48000014) - Data: 00 00 00 28  returns 0x00 (0001ms, 0498ms total)
T1DDC 000:854 JLINK_ReadMem (0x4800001C, 0x0008 Bytes, ...) -- CPU_ReadMem(8 bytes @ 0x4800001C) - Data: 00 00 00 28 00 00 00 28  returns 0x00 (0001ms, 0499ms total)
T1DDC 000:855 JLINK_ReadMem (0x48000024, 0x0004 Bytes, ...) -- CPU_ReadMem(4 bytes @ 0x48000024) - Data: 00 00 00 28  returns 0x00 (0001ms, 0500ms total)
T1DDC 000:948 JLINK_ReadMem (0x48000400, 0x0014 Bytes, ...) -- CPU_ReadMem(20 bytes @ 0x48000400) - Data: 00 00 00 00 00 00 00 00 00 00 00 00 00 00 00 00 ...  returns 0x00 (0001ms, 0501ms total)
T1DDC 000:949 JLINK_ReadMem (0x48000414, 0x0004 Bytes, ...) -- CPU_ReadMem(4 bytes @ 0x48000414) - Data: 00 00 00 00  returns 0x00 (0001ms, 0502ms total)
T1DDC 000:950 JLINK_ReadMem (0x4800041C, 0x0008 Bytes, ...) -- CPU_ReadMem(8 bytes @ 0x4800041C) - Data: 00 00 00 00 00 00 00 00  returns 0x00 (0001ms, 0503ms total)
T1DDC 000:951 JLINK_ReadMem (0x48000424, 0x0004 Bytes, ...) -- CPU_ReadMem(4 bytes @ 0x48000424) - Data: 00 00 00 00  returns 0x00 (0001ms, 0504ms total)
T1DDC 001:039 JLINK_ReadMem (0x48000800, 0x0014 Bytes, ...) -- CPU_ReadMem(20 bytes @ 0x48000800) - Data: 00 00 00 00 00 00 00 00 00 00 00 00 00 00 00 00 ...  returns 0x00 (0001ms, 0505ms total)
T1DDC 001:040 JLINK_ReadMem (0x48000814, 0x0004 Bytes, ...) -- CPU_ReadMem(4 bytes @ 0x48000814) - Data: 00 00 00 00  returns 0x00 (0001ms, 0506ms total)
T1DDC 001:041 JLINK_ReadMem (0x4800081C, 0x0008 Bytes, ...) -- CPU_ReadMem(8 bytes @ 0x4800081C) - Data: 00 00 00 00 00 00 00 00  returns 0x00 (0001ms, 0507ms total)
T1DDC 001:042 JLINK_ReadMem (0x48000824, 0x0004 Bytes, ...) -- CPU_ReadMem(4 bytes @ 0x48000824) - Data: 00 00 00 00  returns 0x00 (0001ms, 0508ms total)
T1DDC 001:134 JLINK_ReadMem (0xE000E100, 0x0004 Bytes, ...) -- CPU_ReadMem(4 bytes @ 0xE000E100) - Data: 00 00 00 00  returns 0x00 (0001ms, 0509ms total)
T1DDC 001:135 JLINK_ReadMem (0xE000E180, 0x0004 Bytes, ...) -- CPU_ReadMem(4 bytes @ 0xE000E180) - Data: 00 00 00 00  returns 0x00 (0001ms, 0510ms total)
T1DDC 001:136 JLINK_ReadMem (0xE000E200, 0x0004 Bytes, ...) -- CPU_ReadMem(4 bytes @ 0xE000E200) - Data: 00 00 00 00  returns 0x00 (0001ms, 0511ms total)
T1DDC 001:137 JLINK_ReadMem (0xE000E280, 0x0004 Bytes, ...) -- CPU_ReadMem(4 bytes @ 0xE000E280) - Data: 00 00 00 00  returns 0x00 (0001ms, 0512ms total)
T1DDC 001:138 JLINK_ReadMem (0xE000E400, 0x001C Bytes, ...) -- CPU_ReadMem(28 bytes @ 0xE000E400) - Data: 00 00 00 00 00 00 00 00 00 00 00 00 00 00 00 00 ...  returns 0x00 (0001ms, 0513ms total)
T1DDC 001:139 JLINK_ReadMem (0xE000E41C, 0x0004 Bytes, ...) -- CPU_ReadMem(4 bytes @ 0xE000E41C) - Data: 00 00 00 00  returns 0x00 (0001ms, 0514ms total)
T1DDC 001:255 JLINK_ReadMem (0x40000400, 0x0010 Bytes, ...) -- CPU_ReadMem(16 bytes @ 0x40000400) - Data: 00 00 00 00 00 00 00 00 00 00 00 00 00 00 00 00  returns 0x00 (0002ms, 0516ms total)
T1DDC 001:257 JLINK_ReadMem (0x40000410, 0x0004 Bytes, ...) -- CPU_ReadMem(4 bytes @ 0x40000410) - Data: 00 00 00 00  returns 0x00 (0002ms, 0518ms total)
T1DDC 001:259 JLINK_ReadMem (0x40000418, 0x0014 Bytes, ...) -- CPU_ReadMem(20 bytes @ 0x40000418) - Data: 00 00 00 00 00 00 00 00 00 00 00 00 00 00 00 00 ...  returns 0x00 (0001ms, 0519ms total)
T1DDC 001:260 JLINK_ReadMem (0x4000042C, 0x0004 Bytes, ...) -- CPU_ReadMem(4 bytes @ 0x4000042C) - Data: 00 00 00 00  returns 0x00 (0001ms, 0520ms total)
T1DDC 001:261 JLINK_ReadMem (0x40000434, 0x000C Bytes, ...) -- CPU_ReadMem(12 bytes @ 0x40000434) - Data: 00 00 00 00 00 00 00 00 00 00 00 00  returns 0x00 (0001ms, 0521ms total)
T1DDC 001:262 JLINK_ReadMem (0x40000440, 0x0004 Bytes, ...) -- CPU_ReadMem(4 bytes @ 0x40000440) - Data: 00 00 00 00  returns 0x00 (0001ms, 0522ms total)
T1DDC 001:263 JLINK_ReadMem (0x40000448, 0x0004 Bytes, ...) -- CPU_ReadMem(4 bytes @ 0x40000448) - Data: 00 00 00 00  returns 0x00 (0001ms, 0523ms total)
T1DDC 001:264 JLINK_ReadMem (0x4000044C, 0x0004 Bytes, ...) -- CPU_ReadMem(4 bytes @ 0x4000044C) - Data: 00 00 00 00  returns 0x00 (0001ms, 0524ms total)
T1240 003:921 JLINK_SetBPEx(Addr = 0x080006C0, Type = 0xFFFFFFF2)  returns 0x00000001 (0000ms, 0524ms total)
T1240 003:921 JLINK_Go() -- CPU_WriteMem(4 bytes @ 0xE0002000) -- CPU_ReadMem(4 bytes @ 0xE0001000) -- CPU_WriteMem(4 bytes @ 0xE0001000) -- CPU_WriteMem(4 bytes @ 0xE0002008) -- CPU_WriteMem(4 bytes @ 0xE000200C) -- CPU_WriteMem(4 bytes @ 0xE0002010) -- CPU_WriteMem(4 bytes @ 0xE0002014) -- CPU_WriteMem(4 bytes @ 0xE0001004) (0009ms, 0533ms total)
T1240 004:031 JLINK_IsHalted()  returns TRUE (0003ms, 0537ms total)
T1240 004:034 JLINK_Halt()  returns 0x00 (0000ms, 0534ms total)
T1240 004:034 JLINK_IsHalted()  returns TRUE (0000ms, 0534ms total)
T1240 004:034 JLINK_IsHalted()  returns TRUE (0000ms, 0534ms total)
T1240 004:034 JLINK_IsHalted()  returns TRUE (0000ms, 0534ms total)
T1240 004:034 JLINK_ReadReg(R15 (PC))  returns 0x080006C0 (0001ms, 0535ms total)
T1240 004:035 JLINK_ReadReg(XPSR)  returns 0x01000000 (0000ms, 0535ms total)
T1240 004:035 JLINK_ClrBPEx(BPHandle = 0x00000001)  returns 0x00 (0000ms, 0535ms total)
T1240 004:035 JLINK_ReadMemU32(0xE000ED30, 0x0001 Items, ...) -- CPU_ReadMem(4 bytes @ 0xE000ED30) - Data: 02 00 00 00  returns 0x01 (0001ms, 0536ms total)
T1240 004:036 JLINK_ReadMemU32(0xE0001028, 0x0001 Items, ...) -- CPU_ReadMem(4 bytes @ 0xE0001028) - Data: 00 00 00 00  returns 0x01 (0001ms, 0537ms total)
T1240 004:037 JLINK_ReadMemU32(0xE0001038, 0x0001 Items, ...) -- CPU_ReadMem(4 bytes @ 0xE0001038) - Data: 00 00 00 00  returns 0x01 (0002ms, 0539ms total)
T1240 004:040 JLINK_ReadReg(R0)  returns 0x20000060 (0000ms, 0539ms total)
T1240 004:040 JLINK_ReadReg(R1)  returns 0x20000260 (0000ms, 0539ms total)
T1240 004:040 JLINK_ReadReg(R2)  returns 0x20000260 (0000ms, 0539ms total)
T1240 004:040 JLINK_ReadReg(R3)  returns 0x20000260 (0000ms, 0539ms total)
T1240 004:040 JLINK_ReadReg(R4)  returns 0x08000708 (0000ms, 0539ms total)
T1240 004:040 JLINK_ReadReg(R5)  returns 0x20000000 (0000ms, 0539ms total)
T1240 004:040 JLINK_ReadReg(R6)  returns 0x00000000 (0000ms, 0539ms total)
T1240 004:040 JLINK_ReadReg(R7)  returns 0x00000000 (0000ms, 0539ms total)
T1240 004:040 JLINK_ReadReg(R8)  returns 0xFFFFFFFF (0000ms, 0539ms total)
T1240 004:040 JLINK_ReadReg(R9)  returns 0xFFFFFFFF (0000ms, 0539ms total)
T1240 004:040 JLINK_ReadReg(R10)  returns 0x08000708 (0000ms, 0539ms total)
T1240 004:040 JLINK_ReadReg(R11)  returns 0x08000708 (0000ms, 0539ms total)
T1240 004:040 JLINK_ReadReg(R12)  returns 0xFFFFFFFF (0000ms, 0539ms total)
T1240 004:040 JLINK_ReadReg(R13 (SP))  returns 0x20000660 (0000ms, 0539ms total)
T1240 004:040 JLINK_ReadReg(R14)  returns 0x0800012B (0000ms, 0539ms total)
T1240 004:040 JLINK_ReadReg(R15 (PC))  returns 0x080006C0 (0000ms, 0539ms total)
T1240 004:040 JLINK_ReadReg(XPSR)  returns 0x01000000 (0000ms, 0539ms total)
T1240 004:040 JLINK_ReadReg(MSP)  returns 0x20000660 (0000ms, 0539ms total)
T1240 004:040 JLINK_ReadReg(PSP)  returns 0xFFFFFFFC (0000ms, 0539ms total)
T1240 004:040 JLINK_ReadReg(CFBP)  returns 0x00000000 (0000ms, 0539ms total)
T1DDC 004:064 JLINK_ReadMem (0x48000800, 0x0014 Bytes, ...) -- CPU_ReadMem(20 bytes @ 0x48000800) - Data: 00 00 00 00 00 00 00 00 00 00 00 00 00 00 00 00 ...  returns 0x00 (0001ms, 0540ms total)
T1DDC 004:065 JLINK_ReadMem (0x48000814, 0x0004 Bytes, ...) -- CPU_ReadMem(4 bytes @ 0x48000814) - Data: 00 00 00 00  returns 0x00 (0001ms, 0541ms total)
T1DDC 004:066 JLINK_ReadMem (0x4800081C, 0x0008 Bytes, ...) -- CPU_ReadMem(8 bytes @ 0x4800081C) - Data: 00 00 00 00 00 00 00 00  returns 0x00 (0001ms, 0542ms total)
T1DDC 004:067 JLINK_ReadMem (0x48000824, 0x0004 Bytes, ...) -- CPU_ReadMem(4 bytes @ 0x48000824) - Data: 00 00 00 00  returns 0x00 (0001ms, 0543ms total)
T1DDC 004:069 JLINK_ReadMem (0xE000E100, 0x0004 Bytes, ...) -- CPU_ReadMem(4 bytes @ 0xE000E100) - Data: 00 00 00 00  returns 0x00 (0002ms, 0545ms total)
T1DDC 004:071 JLINK_ReadMem (0xE000E180, 0x0004 Bytes, ...) -- CPU_ReadMem(4 bytes @ 0xE000E180) - Data: 00 00 00 00  returns 0x00 (0001ms, 0546ms total)
T1DDC 004:072 JLINK_ReadMem (0xE000E200, 0x0004 Bytes, ...) -- CPU_ReadMem(4 bytes @ 0xE000E200) - Data: 00 00 00 00  returns 0x00 (0001ms, 0547ms total)
T1DDC 004:073 JLINK_ReadMem (0xE000E280, 0x0004 Bytes, ...) -- CPU_ReadMem(4 bytes @ 0xE000E280) - Data: 00 00 00 00  returns 0x00 (0001ms, 0548ms total)
T1DDC 004:074 JLINK_ReadMem (0xE000E400, 0x001C Bytes, ...) -- CPU_ReadMem(28 bytes @ 0xE000E400) - Data: 00 00 00 00 00 00 00 00 00 00 00 00 00 00 00 00 ...  returns 0x00 (0001ms, 0549ms total)
T1DDC 004:075 JLINK_ReadMem (0xE000E41C, 0x0004 Bytes, ...) -- CPU_ReadMem(4 bytes @ 0xE000E41C) - Data: 00 00 00 00  returns 0x00 (0001ms, 0550ms total)
T1DDC 004:077 JLINK_ReadMem (0x40000400, 0x0010 Bytes, ...) -- CPU_ReadMem(16 bytes @ 0x40000400) - Data: 00 00 00 00 00 00 00 00 00 00 00 00 00 00 00 00  returns 0x00 (0001ms, 0551ms total)
T1DDC 004:078 JLINK_ReadMem (0x40000410, 0x0004 Bytes, ...) -- CPU_ReadMem(4 bytes @ 0x40000410) - Data: 00 00 00 00  returns 0x00 (0001ms, 0552ms total)
T1DDC 004:079 JLINK_ReadMem (0x40000418, 0x0014 Bytes, ...) -- CPU_ReadMem(20 bytes @ 0x40000418) - Data: 00 00 00 00 00 00 00 00 00 00 00 00 00 00 00 00 ...  returns 0x00 (0001ms, 0553ms total)
T1DDC 004:080 JLINK_ReadMem (0x4000042C, 0x0004 Bytes, ...) -- CPU_ReadMem(4 bytes @ 0x4000042C) - Data: 00 00 00 00  returns 0x00 (0001ms, 0554ms total)
T1DDC 004:081 JLINK_ReadMem (0x40000434, 0x000C Bytes, ...) -- CPU_ReadMem(12 bytes @ 0x40000434) - Data: 00 00 00 00 00 00 00 00 00 00 00 00  returns 0x00 (0001ms, 0555ms total)
T1DDC 004:082 JLINK_ReadMem (0x40000440, 0x0004 Bytes, ...) -- CPU_ReadMem(4 bytes @ 0x40000440) - Data: 00 00 00 00  returns 0x00 (0001ms, 0556ms total)
T1DDC 004:083 JLINK_ReadMem (0x40000448, 0x0004 Bytes, ...) -- CPU_ReadMem(4 bytes @ 0x40000448) - Data: 00 00 00 00  returns 0x00 (0001ms, 0557ms total)
T1DDC 004:084 JLINK_ReadMem (0x4000044C, 0x0004 Bytes, ...) -- CPU_ReadMem(4 bytes @ 0x4000044C) - Data: 00 00 00 00  returns 0x00 (0001ms, 0558ms total)
T1DDC 004:101 JLINK_ReadMem (0x48000400, 0x0014 Bytes, ...) -- CPU_ReadMem(20 bytes @ 0x48000400) - Data: 00 00 00 00 00 00 00 00 00 00 00 00 00 00 00 00 ...  returns 0x00 (0001ms, 0559ms total)
T1DDC 004:102 JLINK_ReadMem (0x48000414, 0x0004 Bytes, ...) -- CPU_ReadMem(4 bytes @ 0x48000414) - Data: 00 00 00 00  returns 0x00 (0001ms, 0560ms total)
T1DDC 004:103 JLINK_ReadMem (0x4800041C, 0x0008 Bytes, ...) -- CPU_ReadMem(8 bytes @ 0x4800041C) - Data: 00 00 00 00 00 00 00 00  returns 0x00 (0001ms, 0561ms total)
T1DDC 004:104 JLINK_ReadMem (0x48000424, 0x0004 Bytes, ...) -- CPU_ReadMem(4 bytes @ 0x48000424) - Data: 00 00 00 00  returns 0x00 (0003ms, 0564ms total)
T1DDC 004:107 JLINK_ReadMem (0x48000000, 0x0014 Bytes, ...) -- CPU_ReadMem(20 bytes @ 0x48000000) - Data: 00 00 00 28 00 00 00 28 00 00 00 28 00 00 00 28 ...  returns 0x00 (0002ms, 0566ms total)
T1DDC 004:109 JLINK_ReadMem (0x48000014, 0x0004 Bytes, ...) -- CPU_ReadMem(4 bytes @ 0x48000014) - Data: 00 00 00 28  returns 0x00 (0001ms, 0567ms total)
T1DDC 004:110 JLINK_ReadMem (0x4800001C, 0x0008 Bytes, ...) -- CPU_ReadMem(8 bytes @ 0x4800001C) - Data: 00 00 00 28 00 00 00 28  returns 0x00 (0002ms, 0569ms total)
T1DDC 004:112 JLINK_ReadMem (0x48000024, 0x0004 Bytes, ...) -- CPU_ReadMem(4 bytes @ 0x48000024) - Data: 00 00 00 28  returns 0x00 (0001ms, 0570ms total)
T1DDC 004:121 JLINK_ReadMem (0x080006C0, 0x003C Bytes, ...) -- CPU_ReadMem(64 bytes @ 0x080006C0) -- Updating C cache (64 bytes @ 0x080006C0) -- Read from C cache (60 bytes @ 0x080006C0) - Data: FF F7 08 FE 0A 48 00 68 0A 49 08 43 08 49 08 60 ...  returns 0x00 (0002ms, 0572ms total)
T1240 005:501 JLINK_Go() -- CPU_ReadMem(4 bytes @ 0xE0001000) -- CPU_WriteMem(4 bytes @ 0xE0001000) -- CPU_WriteMem(4 bytes @ 0xE0002008) (0004ms, 0576ms total)
T1240 005:605 JLINK_IsHalted()  returns FALSE (0001ms, 0577ms total)
T1240 005:706 JLINK_IsHalted()  returns FALSE (0001ms, 0577ms total)
T1240 005:808 JLINK_IsHalted()  returns FALSE (0002ms, 0578ms total)
T1240 005:910 JLINK_IsHalted()  returns FALSE (0001ms, 0577ms total)
T1DDC 006:013 JLINK_ReadMem (0x48000800, 0x0014 Bytes, ...) -- CPU is running -- CPU_ReadMem(20 bytes @ 0x48000800) - Data: 00 A0 0A 00 00 00 00 00 00 00 00 00 00 00 00 00 ...  returns 0x00 (0001ms, 0577ms total)
T1DDC 006:014 JLINK_ReadMem (0x48000814, 0x0004 Bytes, ...) -- CPU is running -- CPU_ReadMem(4 bytes @ 0x48000814) - Data: 00 00 00 00  returns 0x00 (0001ms, 0578ms total)
T1DDC 006:015 JLINK_ReadMem (0x4800081C, 0x0008 Bytes, ...) -- CPU is running -- CPU_ReadMem(8 bytes @ 0x4800081C) - Data: 00 00 00 00 00 00 00 00  returns 0x00 (0001ms, 0579ms total)
T1DDC 006:016 JLINK_ReadMem (0x48000824, 0x0004 Bytes, ...) -- CPU is running -- CPU_ReadMem(4 bytes @ 0x48000824) - Data: 00 00 00 00  returns 0x00 (0001ms, 0580ms total)
T1DDC 006:019 JLINK_ReadMem (0xE000E100, 0x0004 Bytes, ...) -- CPU is running -- CPU_ReadMem(4 bytes @ 0xE000E100) - Data: 00 00 01 00  returns 0x00 (0001ms, 0581ms total)
T1DDC 006:020 JLINK_ReadMem (0xE000E180, 0x0004 Bytes, ...) -- CPU is running -- CPU_ReadMem(4 bytes @ 0xE000E180) - Data: 00 00 01 00  returns 0x00 (0001ms, 0582ms total)
T1DDC 006:021 JLINK_ReadMem (0xE000E200, 0x0004 Bytes, ...) -- CPU is running -- CPU_ReadMem(4 bytes @ 0xE000E200) - Data: 00 00 00 00  returns 0x00 (0001ms, 0583ms total)
T1DDC 006:022 JLINK_ReadMem (0xE000E280, 0x0004 Bytes, ...) -- CPU is running -- CPU_ReadMem(4 bytes @ 0xE000E280) - Data: 00 00 00 00  returns 0x00 (0001ms, 0584ms total)
T1DDC 006:023 JLINK_ReadMem (0xE000E400, 0x001C Bytes, ...) -- CPU is running -- CPU_ReadMem(28 bytes @ 0xE000E400) - Data: 00 00 00 00 00 00 00 00 00 00 00 00 00 00 00 00 ...  returns 0x00 (0001ms, 0585ms total)
T1DDC 006:024 JLINK_ReadMem (0xE000E41C, 0x0004 Bytes, ...) -- CPU is running -- CPU_ReadMem(4 bytes @ 0xE000E41C) - Data: 00 00 00 00  returns 0x00 (0001ms, 0586ms total)
T1DDC 006:026 JLINK_ReadMem (0x40000400, 0x0010 Bytes, ...) -- CPU is running -- CPU_ReadMem(16 bytes @ 0x40000400) - Data: 0D 00 00 00 00 00 00 00 00 00 00 00 01 00 00 00  returns 0x00 (0001ms, 0587ms total)
T1DDC 006:027 JLINK_ReadMem (0x40000410, 0x0004 Bytes, ...) -- CPU is running -- CPU_ReadMem(4 bytes @ 0x40000410) - Data: 1E 1E 00 00  returns 0x00 (0001ms, 0588ms total)
T1DDC 006:028 JLINK_ReadMem (0x40000418, 0x0014 Bytes, ...) -- CPU is running -- CPU_ReadMem(20 bytes @ 0x40000418) - Data: 01 01 00 00 01 01 00 00 11 11 00 00 E3 F5 00 00 ...  returns 0x00 (0001ms, 0589ms total)
T1DDC 006:029 JLINK_ReadMem (0x4000042C, 0x0004 Bytes, ...) -- CPU is running -- CPU_ReadMem(4 bytes @ 0x4000042C) - Data: FF FF 00 00  returns 0x00 (0001ms, 0590ms total)
T1DDC 006:030 JLINK_ReadMem (0x40000434, 0x000C Bytes, ...) -- CPU is running -- CPU_ReadMem(12 bytes @ 0x40000434) - Data: 64 00 00 00 3F 00 00 00 3C 00 00 00  returns 0x00 (0001ms, 0591ms total)
T1DDC 006:031 JLINK_ReadMem (0x40000440, 0x0004 Bytes, ...) -- CPU is running -- CPU_ReadMem(4 bytes @ 0x40000440) - Data: 62 00 00 00  returns 0x00 (0001ms, 0592ms total)
T1DDC 006:032 JLINK_ReadMem (0x40000448, 0x0004 Bytes, ...) -- CPU is running -- CPU_ReadMem(4 bytes @ 0x40000448) - Data: 00 00 00 00  returns 0x00 (0001ms, 0593ms total)
T1DDC 006:034 JLINK_ReadMem (0x4000044C, 0x0004 Bytes, ...) -- CPU is running -- CPU_ReadMem(4 bytes @ 0x4000044C) - Data: 0D 00 00 00  returns 0x00 (0000ms, 0593ms total)
T1DDC 006:162 JLINK_ReadMem (0x48000400, 0x0014 Bytes, ...) -- CPU is running -- CPU_ReadMem(20 bytes @ 0x48000400) - Data: 40 55 00 00 F8 00 00 00 00 00 00 00 40 55 00 00 ...  returns 0x00 (0001ms, 0594ms total)
T1DDC 006:163 JLINK_ReadMem (0x48000414, 0x0004 Bytes, ...) -- CPU is running -- CPU_ReadMem(4 bytes @ 0x48000414) - Data: 00 00 00 00  returns 0x00 (0001ms, 0595ms total)
T1DDC 006:164 JLINK_ReadMem (0x4800041C, 0x0008 Bytes, ...) -- CPU is running -- CPU_ReadMem(8 bytes @ 0x4800041C) - Data: 00 00 00 00 00 00 00 00  returns 0x00 (0001ms, 0596ms total)
T1DDC 006:165 JLINK_ReadMem (0x48000424, 0x0004 Bytes, ...) -- CPU is running -- CPU_ReadMem(4 bytes @ 0x48000424) - Data: 00 00 00 00  returns 0x00 (0001ms, 0597ms total)
T1DDC 006:168 JLINK_ReadMem (0x48000000, 0x0014 Bytes, ...) -- CPU is running -- CPU_ReadMem(20 bytes @ 0x48000000) - Data: 00 00 41 29 00 00 00 00 00 00 00 0C 00 00 00 24 ...  returns 0x00 (0002ms, 0599ms total)
T1DDC 006:170 JLINK_ReadMem (0x48000014, 0x0004 Bytes, ...) -- CPU is running -- CPU_ReadMem(4 bytes @ 0x48000014) - Data: 00 19 00 00  returns 0x00 (0001ms, 0600ms total)
T1DDC 006:171 JLINK_ReadMem (0x4800001C, 0x0008 Bytes, ...) -- CPU is running -- CPU_ReadMem(8 bytes @ 0x4800001C) - Data: 00 00 00 00 00 00 00 00  returns 0x00 (0001ms, 0601ms total)
T1DDC 006:172 JLINK_ReadMem (0x48000024, 0x0004 Bytes, ...) -- CPU is running -- CPU_ReadMem(4 bytes @ 0x48000024) - Data: 00 00 00 00  returns 0x00 (0001ms, 0602ms total)
T1240 006:176 JLINK_IsHalted()  returns FALSE (0001ms, 0603ms total)
T1240 006:277 JLINK_IsHalted()  returns FALSE (0001ms, 0603ms total)
T1240 006:378 JLINK_IsHalted()  returns FALSE (0001ms, 0603ms total)
T1240 006:479 JLINK_IsHalted()  returns FALSE (0001ms, 0603ms total)
T1DDC 006:581 JLINK_ReadMem (0x48000800, 0x0014 Bytes, ...) -- CPU is running -- CPU_ReadMem(20 bytes @ 0x48000800) - Data: 00 A0 0A 00 00 00 00 00 00 00 00 00 00 00 00 00 ...  returns 0x00 (0002ms, 0604ms total)
T1DDC 006:583 JLINK_ReadMem (0x48000814, 0x0004 Bytes, ...) -- CPU is running -- CPU_ReadMem(4 bytes @ 0x48000814) - Data: 00 00 00 00  returns 0x00 (0001ms, 0605ms total)
T1DDC 006:584 JLINK_ReadMem (0x4800081C, 0x0008 Bytes, ...) -- CPU is running -- CPU_ReadMem(8 bytes @ 0x4800081C) - Data: 00 00 00 00 00 00 00 00  returns 0x00 (0001ms, 0606ms total)
T1DDC 006:585 JLINK_ReadMem (0x48000824, 0x0004 Bytes, ...) -- CPU is running -- CPU_ReadMem(4 bytes @ 0x48000824) - Data: 00 00 00 00  returns 0x00 (0002ms, 0608ms total)
T1DDC 006:587 JLINK_ReadMem (0xE000E100, 0x0004 Bytes, ...) -- CPU is running -- CPU_ReadMem(4 bytes @ 0xE000E100) - Data: 00 00 01 00  returns 0x00 (0001ms, 0609ms total)
T1DDC 006:588 JLINK_ReadMem (0xE000E180, 0x0004 Bytes, ...) -- CPU is running -- CPU_ReadMem(4 bytes @ 0xE000E180) - Data: 00 00 01 00  returns 0x00 (0001ms, 0610ms total)
T1DDC 006:589 JLINK_ReadMem (0xE000E200, 0x0004 Bytes, ...) -- CPU is running -- CPU_ReadMem(4 bytes @ 0xE000E200) - Data: 00 00 00 00  returns 0x00 (0001ms, 0611ms total)
T1DDC 006:590 JLINK_ReadMem (0xE000E280, 0x0004 Bytes, ...) -- CPU is running -- CPU_ReadMem(4 bytes @ 0xE000E280) - Data: 00 00 00 00  returns 0x00 (0001ms, 0612ms total)
T1DDC 006:591 JLINK_ReadMem (0xE000E400, 0x001C Bytes, ...) -- CPU is running -- CPU_ReadMem(28 bytes @ 0xE000E400) - Data: 00 00 00 00 00 00 00 00 00 00 00 00 00 00 00 00 ...  returns 0x00 (0002ms, 0614ms total)
T1DDC 006:593 JLINK_ReadMem (0xE000E41C, 0x0004 Bytes, ...) -- CPU is running -- CPU_ReadMem(4 bytes @ 0xE000E41C) - Data: 00 00 00 00  returns 0x00 (0001ms, 0615ms total)
T1DDC 006:594 JLINK_ReadMem (0x40000400, 0x0010 Bytes, ...) -- CPU is running -- CPU_ReadMem(16 bytes @ 0x40000400) - Data: 0D 00 00 00 00 00 00 00 00 00 00 00 01 00 00 00  returns 0x00 (0001ms, 0616ms total)
T1DDC 006:595 JLINK_ReadMem (0x40000410, 0x0004 Bytes, ...) -- CPU is running -- CPU_ReadMem(4 bytes @ 0x40000410) - Data: 1E 1E 00 00  returns 0x00 (0001ms, 0617ms total)
T1DDC 006:596 JLINK_ReadMem (0x40000418, 0x0014 Bytes, ...) -- CPU is running -- CPU_ReadMem(20 bytes @ 0x40000418) - Data: 01 01 00 00 01 01 00 00 11 11 00 00 8B 61 00 00 ...  returns 0x00 (0001ms, 0618ms total)
T1DDC 006:597 JLINK_ReadMem (0x4000042C, 0x0004 Bytes, ...) -- CPU is running -- CPU_ReadMem(4 bytes @ 0x4000042C) - Data: FF FF 00 00  returns 0x00 (0001ms, 0619ms total)
T1DDC 006:598 JLINK_ReadMem (0x40000434, 0x000C Bytes, ...) -- CPU is running -- CPU_ReadMem(12 bytes @ 0x40000434) - Data: 64 00 00 00 3E 00 00 00 3C 00 00 00  returns 0x00 (0001ms, 0620ms total)
T1DDC 006:599 JLINK_ReadMem (0x40000440, 0x0004 Bytes, ...) -- CPU is running -- CPU_ReadMem(4 bytes @ 0x40000440) - Data: 62 00 00 00  returns 0x00 (0001ms, 0621ms total)
T1DDC 006:600 JLINK_ReadMem (0x40000448, 0x0004 Bytes, ...) -- CPU is running -- CPU_ReadMem(4 bytes @ 0x40000448) - Data: 00 00 00 00  returns 0x00 (0001ms, 0622ms total)
T1DDC 006:601 JLINK_ReadMem (0x4000044C, 0x0004 Bytes, ...) -- CPU is running -- CPU_ReadMem(4 bytes @ 0x4000044C) - Data: 0D 00 00 00  returns 0x00 (0001ms, 0623ms total)
T1DDC 006:615 JLINK_ReadMem (0x48000400, 0x0014 Bytes, ...) -- CPU is running -- CPU_ReadMem(20 bytes @ 0x48000400) - Data: 40 55 00 00 F8 00 00 00 00 00 00 00 40 55 00 00 ...  returns 0x00 (0001ms, 0624ms total)
T1DDC 006:616 JLINK_ReadMem (0x48000414, 0x0004 Bytes, ...) -- CPU is running -- CPU_ReadMem(4 bytes @ 0x48000414) - Data: 00 00 00 00  returns 0x00 (0001ms, 0625ms total)
T1DDC 006:617 JLINK_ReadMem (0x4800041C, 0x0008 Bytes, ...) -- CPU is running -- CPU_ReadMem(8 bytes @ 0x4800041C) - Data: 00 00 00 00 00 00 00 00  returns 0x00 (0001ms, 0626ms total)
T1DDC 006:618 JLINK_ReadMem (0x48000424, 0x0004 Bytes, ...) -- CPU is running -- CPU_ReadMem(4 bytes @ 0x48000424) - Data: 00 00 00 00  returns 0x00 (0001ms, 0627ms total)
T1DDC 006:620 JLINK_ReadMem (0x48000000, 0x0014 Bytes, ...) -- CPU is running -- CPU_ReadMem(20 bytes @ 0x48000000) - Data: 00 00 41 29 00 00 00 00 00 00 00 0C 00 00 00 24 ...  returns 0x00 (0001ms, 0628ms total)
T1DDC 006:621 JLINK_ReadMem (0x48000014, 0x0004 Bytes, ...) -- CPU is running -- CPU_ReadMem(4 bytes @ 0x48000014) - Data: 00 19 00 00  returns 0x00 (0003ms, 0631ms total)
T1DDC 006:624 JLINK_ReadMem (0x4800001C, 0x0008 Bytes, ...) -- CPU is running -- CPU_ReadMem(8 bytes @ 0x4800001C) - Data: 00 00 00 00 00 00 00 00  returns 0x00 (0001ms, 0632ms total)
T1DDC 006:625 JLINK_ReadMem (0x48000024, 0x0004 Bytes, ...) -- CPU is running -- CPU_ReadMem(4 bytes @ 0x48000024) - Data: 00 00 00 00  returns 0x00 (0001ms, 0633ms total)
T1240 006:627 JLINK_IsHalted()  returns FALSE (0001ms, 0634ms total)
T1240 006:728 JLINK_IsHalted()  returns FALSE (0001ms, 0634ms total)
T1240 006:829 JLINK_IsHalted()  returns FALSE (0001ms, 0634ms total)
T1240 006:930 JLINK_IsHalted()  returns FALSE (0002ms, 0635ms total)
T1240 007:032 JLINK_IsHalted()  returns FALSE (0001ms, 0634ms total)
T1DDC 007:135 JLINK_ReadMem (0x48000800, 0x0014 Bytes, ...) -- CPU is running -- CPU_ReadMem(20 bytes @ 0x48000800) - Data: 00 A0 0A 00 00 00 00 00 00 00 00 00 00 00 00 00 ...  returns 0x00 (0001ms, 0634ms total)
T1DDC 007:136 JLINK_ReadMem (0x48000814, 0x0004 Bytes, ...) -- CPU is running -- CPU_ReadMem(4 bytes @ 0x48000814) - Data: 00 00 00 00  returns 0x00 (0001ms, 0635ms total)
T1DDC 007:137 JLINK_ReadMem (0x4800081C, 0x0008 Bytes, ...) -- CPU is running -- CPU_ReadMem(8 bytes @ 0x4800081C) - Data: 00 00 00 00 00 00 00 00  returns 0x00 (0001ms, 0636ms total)
T1DDC 007:138 JLINK_ReadMem (0x48000824, 0x0004 Bytes, ...) -- CPU is running -- CPU_ReadMem(4 bytes @ 0x48000824) - Data: 00 00 00 00  returns 0x00 (0001ms, 0637ms total)
T1DDC 007:139 JLINK_ReadMem (0xE000E100, 0x0004 Bytes, ...) -- CPU is running -- CPU_ReadMem(4 bytes @ 0xE000E100) - Data: 00 00 01 00  returns 0x00 (0002ms, 0639ms total)
T1DDC 007:141 JLINK_ReadMem (0xE000E180, 0x0004 Bytes, ...) -- CPU is running -- CPU_ReadMem(4 bytes @ 0xE000E180) - Data: 00 00 01 00  returns 0x00 (0001ms, 0640ms total)
T1DDC 007:142 JLINK_ReadMem (0xE000E200, 0x0004 Bytes, ...) -- CPU is running -- CPU_ReadMem(4 bytes @ 0xE000E200) - Data: 00 00 00 00  returns 0x00 (0001ms, 0641ms total)
T1DDC 007:143 JLINK_ReadMem (0xE000E280, 0x0004 Bytes, ...) -- CPU is running -- CPU_ReadMem(4 bytes @ 0xE000E280) - Data: 00 00 00 00  returns 0x00 (0001ms, 0642ms total)
T1DDC 007:144 JLINK_ReadMem (0xE000E400, 0x001C Bytes, ...) -- CPU is running -- CPU_ReadMem(28 bytes @ 0xE000E400) - Data: 00 00 00 00 00 00 00 00 00 00 00 00 00 00 00 00 ...  returns 0x00 (0001ms, 0643ms total)
T1DDC 007:145 JLINK_ReadMem (0xE000E41C, 0x0004 Bytes, ...) -- CPU is running -- CPU_ReadMem(4 bytes @ 0xE000E41C) - Data: 00 00 00 00  returns 0x00 (0001ms, 0644ms total)
T1DDC 007:146 JLINK_ReadMem (0x40000400, 0x0010 Bytes, ...) -- CPU is running -- CPU_ReadMem(16 bytes @ 0x40000400) - Data: 0D 00 00 00 00 00 00 00 00 00 00 00 01 00 00 00  returns 0x00 (0001ms, 0645ms total)
T1DDC 007:147 JLINK_ReadMem (0x40000410, 0x0004 Bytes, ...) -- CPU is running -- CPU_ReadMem(4 bytes @ 0x40000410) - Data: 1E 1E 00 00  returns 0x00 (0001ms, 0646ms total)
T1DDC 007:148 JLINK_ReadMem (0x40000418, 0x0014 Bytes, ...) -- CPU is running -- CPU_ReadMem(20 bytes @ 0x40000418) - Data: 01 01 00 00 01 01 00 00 11 11 00 00 3F BC 00 00 ...  returns 0x00 (0001ms, 0647ms total)
T1DDC 007:149 JLINK_ReadMem (0x4000042C, 0x0004 Bytes, ...) -- CPU is running -- CPU_ReadMem(4 bytes @ 0x4000042C) - Data: FF FF 00 00  returns 0x00 (0001ms, 0648ms total)
T1DDC 007:150 JLINK_ReadMem (0x40000434, 0x000C Bytes, ...) -- CPU is running -- CPU_ReadMem(12 bytes @ 0x40000434) - Data: 64 00 00 00 3F 00 00 00 3C 00 00 00  returns 0x00 (0001ms, 0649ms total)
T1DDC 007:151 JLINK_ReadMem (0x40000440, 0x0004 Bytes, ...) -- CPU is running -- CPU_ReadMem(4 bytes @ 0x40000440) - Data: 63 00 00 00  returns 0x00 (0001ms, 0650ms total)
T1DDC 007:152 JLINK_ReadMem (0x40000448, 0x0004 Bytes, ...) -- CPU is running -- CPU_ReadMem(4 bytes @ 0x40000448) - Data: 00 00 00 00  returns 0x00 (0001ms, 0651ms total)
T1DDC 007:153 JLINK_ReadMem (0x4000044C, 0x0004 Bytes, ...) -- CPU is running -- CPU_ReadMem(4 bytes @ 0x4000044C) - Data: 0D 00 00 00  returns 0x00 (0001ms, 0652ms total)
T1DDC 007:175 JLINK_ReadMem (0x48000400, 0x0014 Bytes, ...) -- CPU is running -- CPU_ReadMem(20 bytes @ 0x48000400) - Data: 40 55 00 00 F8 00 00 00 00 00 00 00 40 55 00 00 ...  returns 0x00 (0002ms, 0654ms total)
T1DDC 007:177 JLINK_ReadMem (0x48000414, 0x0004 Bytes, ...) -- CPU is running -- CPU_ReadMem(4 bytes @ 0x48000414) - Data: 00 00 00 00  returns 0x00 (0001ms, 0655ms total)
T1DDC 007:178 JLINK_ReadMem (0x4800041C, 0x0008 Bytes, ...) -- CPU is running -- CPU_ReadMem(8 bytes @ 0x4800041C) - Data: 00 00 00 00 00 00 00 00  returns 0x00 (0001ms, 0656ms total)
T1DDC 007:179 JLINK_ReadMem (0x48000424, 0x0004 Bytes, ...) -- CPU is running -- CPU_ReadMem(4 bytes @ 0x48000424) - Data: 00 00 00 00  returns 0x00 (0001ms, 0657ms total)
T1DDC 007:181 JLINK_ReadMem (0x48000000, 0x0014 Bytes, ...) -- CPU is running -- CPU_ReadMem(20 bytes @ 0x48000000) - Data: 00 00 41 29 00 00 00 00 00 00 00 0C 00 00 00 24 ...  returns 0x00 (0001ms, 0658ms total)
T1DDC 007:182 JLINK_ReadMem (0x48000014, 0x0004 Bytes, ...) -- CPU is running -- CPU_ReadMem(4 bytes @ 0x48000014) - Data: 00 19 00 00  returns 0x00 (0001ms, 0659ms total)
T1DDC 007:183 JLINK_ReadMem (0x4800001C, 0x0008 Bytes, ...) -- CPU is running -- CPU_ReadMem(8 bytes @ 0x4800001C) - Data: 00 00 00 00 00 00 00 00  returns 0x00 (0001ms, 0660ms total)
T1DDC 007:184 JLINK_ReadMem (0x48000024, 0x0004 Bytes, ...) -- CPU is running -- CPU_ReadMem(4 bytes @ 0x48000024) - Data: 00 00 00 00  returns 0x00 (0001ms, 0661ms total)
T1240 007:186 JLINK_IsHalted()  returns FALSE (0001ms, 0662ms total)
T1240 007:287 JLINK_IsHalted()  returns FALSE (0001ms, 0662ms total)
T1240 007:388 JLINK_IsHalted()  returns FALSE (0001ms, 0662ms total)
T1240 007:489 JLINK_IsHalted()  returns FALSE (0000ms, 0661ms total)
T1240 007:589 JLINK_IsHalted()  returns FALSE (0001ms, 0662ms total)
T1DDC 007:696 JLINK_ReadMem (0x48000800, 0x0014 Bytes, ...) -- CPU is running -- CPU_ReadMem(20 bytes @ 0x48000800) - Data: 00 A0 0A 00 00 00 00 00 00 00 00 00 00 00 00 00 ...  returns 0x00 (0001ms, 0662ms total)
T1DDC 007:697 JLINK_ReadMem (0x48000814, 0x0004 Bytes, ...) -- CPU is running -- CPU_ReadMem(4 bytes @ 0x48000814) - Data: 00 00 00 00  returns 0x00 (0001ms, 0663ms total)
T1DDC 007:698 JLINK_ReadMem (0x4800081C, 0x0008 Bytes, ...) -- CPU is running -- CPU_ReadMem(8 bytes @ 0x4800081C) - Data: 00 00 00 00 00 00 00 00  returns 0x00 (0001ms, 0664ms total)
T1DDC 007:699 JLINK_ReadMem (0x48000824, 0x0004 Bytes, ...) -- CPU is running -- CPU_ReadMem(4 bytes @ 0x48000824) - Data: 00 00 00 00  returns 0x00 (0001ms, 0665ms total)
T1DDC 007:701 JLINK_ReadMem (0xE000E100, 0x0004 Bytes, ...) -- CPU is running -- CPU_ReadMem(4 bytes @ 0xE000E100) - Data: 00 00 01 00  returns 0x00 (0001ms, 0666ms total)
T1DDC 007:702 JLINK_ReadMem (0xE000E180, 0x0004 Bytes, ...) -- CPU is running -- CPU_ReadMem(4 bytes @ 0xE000E180) - Data: 00 00 01 00  returns 0x00 (0001ms, 0667ms total)
T1DDC 007:703 JLINK_ReadMem (0xE000E200, 0x0004 Bytes, ...) -- CPU is running -- CPU_ReadMem(4 bytes @ 0xE000E200) - Data: 00 00 00 00  returns 0x00 (0001ms, 0668ms total)
T1DDC 007:704 JLINK_ReadMem (0xE000E280, 0x0004 Bytes, ...) -- CPU is running -- CPU_ReadMem(4 bytes @ 0xE000E280) - Data: 00 00 00 00  returns 0x00 (0001ms, 0669ms total)
T1DDC 007:705 JLINK_ReadMem (0xE000E400, 0x001C Bytes, ...) -- CPU is running -- CPU_ReadMem(28 bytes @ 0xE000E400) - Data: 00 00 00 00 00 00 00 00 00 00 00 00 00 00 00 00 ...  returns 0x00 (0001ms, 0670ms total)
T1DDC 007:706 JLINK_ReadMem (0xE000E41C, 0x0004 Bytes, ...) -- CPU is running -- CPU_ReadMem(4 bytes @ 0xE000E41C) - Data: 00 00 00 00  returns 0x00 (0002ms, 0672ms total)
T1DDC 007:708 JLINK_ReadMem (0x40000400, 0x0010 Bytes, ...) -- CPU is running -- CPU_ReadMem(16 bytes @ 0x40000400) - Data: 0D 00 00 00 00 00 00 00 00 00 00 00 01 00 00 00  returns 0x00 (0002ms, 0674ms total)
T1DDC 007:710 JLINK_ReadMem (0x40000410, 0x0004 Bytes, ...) -- CPU is running -- CPU_ReadMem(4 bytes @ 0x40000410) - Data: 1E 1E 00 00  returns 0x00 (0002ms, 0676ms total)
T1DDC 007:712 JLINK_ReadMem (0x40000418, 0x0014 Bytes, ...) -- CPU is running -- CPU_ReadMem(20 bytes @ 0x40000418) - Data: 01 01 00 00 01 01 00 00 11 11 00 00 33 B6 00 00 ...  returns 0x00 (0001ms, 0677ms total)
T1DDC 007:713 JLINK_ReadMem (0x4000042C, 0x0004 Bytes, ...) -- CPU is running -- CPU_ReadMem(4 bytes @ 0x4000042C) - Data: FF FF 00 00  returns 0x00 (0001ms, 0678ms total)
T1DDC 007:714 JLINK_ReadMem (0x40000434, 0x000C Bytes, ...) -- CPU is running -- CPU_ReadMem(12 bytes @ 0x40000434) - Data: 64 00 00 00 3E 00 00 00 3C 00 00 00  returns 0x00 (0001ms, 0679ms total)
T1DDC 007:715 JLINK_ReadMem (0x40000440, 0x0004 Bytes, ...) -- CPU is running -- CPU_ReadMem(4 bytes @ 0x40000440) - Data: 62 00 00 00  returns 0x00 (0001ms, 0680ms total)
T1DDC 007:716 JLINK_ReadMem (0x40000448, 0x0004 Bytes, ...) -- CPU is running -- CPU_ReadMem(4 bytes @ 0x40000448) - Data: 00 00 00 00  returns 0x00 (0001ms, 0681ms total)
T1DDC 007:717 JLINK_ReadMem (0x4000044C, 0x0004 Bytes, ...) -- CPU is running -- CPU_ReadMem(4 bytes @ 0x4000044C) - Data: 0D 00 00 00  returns 0x00 (0001ms, 0682ms total)
T1DDC 007:747 JLINK_ReadMem (0x48000400, 0x0014 Bytes, ...) -- CPU is running -- CPU_ReadMem(20 bytes @ 0x48000400) - Data: 40 55 00 00 F8 00 00 00 00 00 00 00 40 55 00 00 ...  returns 0x00 (0002ms, 0684ms total)
T1DDC 007:749 JLINK_ReadMem (0x48000414, 0x0004 Bytes, ...) -- CPU is running -- CPU_ReadMem(4 bytes @ 0x48000414) - Data: 00 00 00 00  returns 0x00 (0001ms, 0685ms total)
T1DDC 007:750 JLINK_ReadMem (0x4800041C, 0x0008 Bytes, ...) -- CPU is running -- CPU_ReadMem(8 bytes @ 0x4800041C) - Data: 00 00 00 00 00 00 00 00  returns 0x00 (0001ms, 0686ms total)
T1DDC 007:751 JLINK_ReadMem (0x48000424, 0x0004 Bytes, ...) -- CPU is running -- CPU_ReadMem(4 bytes @ 0x48000424) - Data: 00 00 00 00  returns 0x00 (0002ms, 0688ms total)
T1DDC 007:754 JLINK_ReadMem (0x48000000, 0x0014 Bytes, ...) -- CPU is running -- CPU_ReadMem(20 bytes @ 0x48000000) - Data: 00 00 41 29 00 00 00 00 00 00 00 0C 00 00 00 24 ...  returns 0x00 (0001ms, 0689ms total)
T1DDC 007:755 JLINK_ReadMem (0x48000014, 0x0004 Bytes, ...) -- CPU is running -- CPU_ReadMem(4 bytes @ 0x48000014) - Data: 00 19 00 00  returns 0x00 (0001ms, 0690ms total)
T1DDC 007:756 JLINK_ReadMem (0x4800001C, 0x0008 Bytes, ...) -- CPU is running -- CPU_ReadMem(8 bytes @ 0x4800001C) - Data: 00 00 00 00 00 00 00 00  returns 0x00 (0001ms, 0691ms total)
T1DDC 007:757 JLINK_ReadMem (0x48000024, 0x0004 Bytes, ...) -- CPU is running -- CPU_ReadMem(4 bytes @ 0x48000024) - Data: 00 00 00 00  returns 0x00 (0001ms, 0692ms total)
T1240 007:759 JLINK_IsHalted()  returns FALSE (0002ms, 0694ms total)
T1240 007:861 JLINK_IsHalted()  returns FALSE (0001ms, 0693ms total)
T1240 007:962 JLINK_IsHalted()  returns FALSE (0001ms, 0693ms total)
T1240 008:063 JLINK_IsHalted()  returns FALSE (0001ms, 0693ms total)
T1240 008:164 JLINK_IsHalted()  returns FALSE (0001ms, 0693ms total)
T1DDC 008:267 JLINK_ReadMem (0x48000800, 0x0014 Bytes, ...) -- CPU is running -- CPU_ReadMem(20 bytes @ 0x48000800) - Data: 00 A0 0A 00 00 00 00 00 00 00 00 00 00 00 00 00 ...  returns 0x00 (0002ms, 0694ms total)
T1DDC 008:269 JLINK_ReadMem (0x48000814, 0x0004 Bytes, ...) -- CPU is running -- CPU_ReadMem(4 bytes @ 0x48000814) - Data: 00 00 00 00  returns 0x00 (0001ms, 0695ms total)
T1DDC 008:270 JLINK_ReadMem (0x4800081C, 0x0008 Bytes, ...) -- CPU is running -- CPU_ReadMem(8 bytes @ 0x4800081C) - Data: 00 00 00 00 00 00 00 00  returns 0x00 (0001ms, 0696ms total)
T1DDC 008:271 JLINK_ReadMem (0x48000824, 0x0004 Bytes, ...) -- CPU is running -- CPU_ReadMem(4 bytes @ 0x48000824) - Data: 00 00 00 00  returns 0x00 (0001ms, 0697ms total)
T1DDC 008:272 JLINK_ReadMem (0xE000E100, 0x0004 Bytes, ...) -- CPU is running -- CPU_ReadMem(4 bytes @ 0xE000E100) - Data: 00 00 01 00  returns 0x00 (0001ms, 0698ms total)
T1DDC 008:273 JLINK_ReadMem (0xE000E180, 0x0004 Bytes, ...) -- CPU is running -- CPU_ReadMem(4 bytes @ 0xE000E180) - Data: 00 00 01 00  returns 0x00 (0001ms, 0699ms total)
T1DDC 008:274 JLINK_ReadMem (0xE000E200, 0x0004 Bytes, ...) -- CPU is running -- CPU_ReadMem(4 bytes @ 0xE000E200) - Data: 00 00 00 00  returns 0x00 (0001ms, 0700ms total)
T1DDC 008:275 JLINK_ReadMem (0xE000E280, 0x0004 Bytes, ...) -- CPU is running -- CPU_ReadMem(4 bytes @ 0xE000E280) - Data: 00 00 00 00  returns 0x00 (0001ms, 0701ms total)
T1DDC 008:276 JLINK_ReadMem (0xE000E400, 0x001C Bytes, ...) -- CPU is running -- CPU_ReadMem(28 bytes @ 0xE000E400) - Data: 00 00 00 00 00 00 00 00 00 00 00 00 00 00 00 00 ...  returns 0x00 (0002ms, 0703ms total)
T1DDC 008:278 JLINK_ReadMem (0xE000E41C, 0x0004 Bytes, ...) -- CPU is running -- CPU_ReadMem(4 bytes @ 0xE000E41C) - Data: 00 00 00 00  returns 0x00 (0001ms, 0704ms total)
T1DDC 008:279 JLINK_ReadMem (0x40000400, 0x0010 Bytes, ...) -- CPU is running -- CPU_ReadMem(16 bytes @ 0x40000400) - Data: 0D 00 00 00 00 00 00 00 00 00 00 00 01 00 00 00  returns 0x00 (0001ms, 0705ms total)
T1DDC 008:280 JLINK_ReadMem (0x40000410, 0x0004 Bytes, ...) -- CPU is running -- CPU_ReadMem(4 bytes @ 0x40000410) - Data: 1E 1E 00 00  returns 0x00 (0001ms, 0706ms total)
T1DDC 008:281 JLINK_ReadMem (0x40000418, 0x0014 Bytes, ...) -- CPU is running -- CPU_ReadMem(20 bytes @ 0x40000418) - Data: 01 01 00 00 01 01 00 00 11 11 00 00 F9 32 00 00 ...  returns 0x00 (0002ms, 0708ms total)
T1DDC 008:283 JLINK_ReadMem (0x4000042C, 0x0004 Bytes, ...) -- CPU is running -- CPU_ReadMem(4 bytes @ 0x4000042C) - Data: FF FF 00 00  returns 0x00 (0001ms, 0709ms total)
T1DDC 008:284 JLINK_ReadMem (0x40000434, 0x000C Bytes, ...) -- CPU is running -- CPU_ReadMem(12 bytes @ 0x40000434) - Data: 64 00 00 00 3E 00 00 00 3C 00 00 00  returns 0x00 (0001ms, 0710ms total)
T1DDC 008:285 JLINK_ReadMem (0x40000440, 0x0004 Bytes, ...) -- CPU is running -- CPU_ReadMem(4 bytes @ 0x40000440) - Data: 62 00 00 00  returns 0x00 (0001ms, 0711ms total)
T1DDC 008:286 JLINK_ReadMem (0x40000448, 0x0004 Bytes, ...) -- CPU is running -- CPU_ReadMem(4 bytes @ 0x40000448) - Data: 00 00 00 00  returns 0x00 (0001ms, 0712ms total)
T1DDC 008:287 JLINK_ReadMem (0x4000044C, 0x0004 Bytes, ...) -- CPU is running -- CPU_ReadMem(4 bytes @ 0x4000044C) - Data: 0D 00 00 00  returns 0x00 (0003ms, 0715ms total)
T1DDC 008:299 JLINK_ReadMem (0x48000400, 0x0014 Bytes, ...) -- CPU is running -- CPU_ReadMem(20 bytes @ 0x48000400) - Data: 40 55 00 00 F8 00 00 00 00 00 00 00 40 55 00 00 ...  returns 0x00 (0002ms, 0717ms total)
T1DDC 008:301 JLINK_ReadMem (0x48000414, 0x0004 Bytes, ...) -- CPU is running -- CPU_ReadMem(4 bytes @ 0x48000414) - Data: 00 00 00 00  returns 0x00 (0001ms, 0718ms total)
T1DDC 008:302 JLINK_ReadMem (0x4800041C, 0x0008 Bytes, ...) -- CPU is running -- CPU_ReadMem(8 bytes @ 0x4800041C) - Data: 00 00 00 00 00 00 00 00  returns 0x00 (0001ms, 0719ms total)
T1DDC 008:303 JLINK_ReadMem (0x48000424, 0x0004 Bytes, ...) -- CPU is running -- CPU_ReadMem(4 bytes @ 0x48000424) - Data: 00 00 00 00  returns 0x00 (0001ms, 0720ms total)
T1DDC 008:305 JLINK_ReadMem (0x48000000, 0x0014 Bytes, ...) -- CPU is running -- CPU_ReadMem(20 bytes @ 0x48000000) - Data: 00 00 41 29 00 00 00 00 00 00 00 0C 00 00 00 24 ...  returns 0x00 (0001ms, 0721ms total)
T1DDC 008:306 JLINK_ReadMem (0x48000014, 0x0004 Bytes, ...) -- CPU is running -- CPU_ReadMem(4 bytes @ 0x48000014) - Data: 00 19 00 00  returns 0x00 (0001ms, 0722ms total)
T1DDC 008:307 JLINK_ReadMem (0x4800001C, 0x0008 Bytes, ...) -- CPU is running -- CPU_ReadMem(8 bytes @ 0x4800001C) - Data: 00 00 00 00 00 00 00 00  returns 0x00 (0001ms, 0723ms total)
T1DDC 008:308 JLINK_ReadMem (0x48000024, 0x0004 Bytes, ...) -- CPU is running -- CPU_ReadMem(4 bytes @ 0x48000024) - Data: 00 00 00 00  returns 0x00 (0001ms, 0724ms total)
T1240 008:310 JLINK_IsHalted()  returns FALSE (0002ms, 0726ms total)
T1240 008:412 JLINK_IsHalted()  returns FALSE (0001ms, 0725ms total)
T1240 008:513 JLINK_IsHalted()  returns FALSE (0000ms, 0724ms total)
T1240 008:613 JLINK_IsHalted()  returns FALSE (0001ms, 0725ms total)
T1240 008:714 JLINK_IsHalted()  returns FALSE (0001ms, 0725ms total)
T1DDC 008:818 JLINK_ReadMem (0x48000800, 0x0014 Bytes, ...) -- CPU is running -- CPU_ReadMem(20 bytes @ 0x48000800) - Data: 00 A0 0A 00 00 00 00 00 00 00 00 00 00 00 00 00 ...  returns 0x00 (0001ms, 0725ms total)
T1DDC 008:819 JLINK_ReadMem (0x48000814, 0x0004 Bytes, ...) -- CPU is running -- CPU_ReadMem(4 bytes @ 0x48000814) - Data: 00 00 00 00  returns 0x00 (0001ms, 0726ms total)
T1DDC 008:820 JLINK_ReadMem (0x4800081C, 0x0008 Bytes, ...) -- CPU is running -- CPU_ReadMem(8 bytes @ 0x4800081C) - Data: 00 00 00 00 00 00 00 00  returns 0x00 (0001ms, 0727ms total)
T1DDC 008:821 JLINK_ReadMem (0x48000824, 0x0004 Bytes, ...) -- CPU is running -- CPU_ReadMem(4 bytes @ 0x48000824) - Data: 00 00 00 00  returns 0x00 (0001ms, 0728ms total)
T1DDC 008:823 JLINK_ReadMem (0xE000E100, 0x0004 Bytes, ...) -- CPU is running -- CPU_ReadMem(4 bytes @ 0xE000E100) - Data: 00 00 01 00  returns 0x00 (0001ms, 0729ms total)
T1DDC 008:824 JLINK_ReadMem (0xE000E180, 0x0004 Bytes, ...) -- CPU is running -- CPU_ReadMem(4 bytes @ 0xE000E180) - Data: 00 00 01 00  returns 0x00 (0001ms, 0730ms total)
T1DDC 008:825 JLINK_ReadMem (0xE000E200, 0x0004 Bytes, ...) -- CPU is running -- CPU_ReadMem(4 bytes @ 0xE000E200) - Data: 00 00 00 00  returns 0x00 (0001ms, 0731ms total)
T1DDC 008:826 JLINK_ReadMem (0xE000E280, 0x0004 Bytes, ...) -- CPU is running -- CPU_ReadMem(4 bytes @ 0xE000E280) - Data: 00 00 00 00  returns 0x00 (0001ms, 0732ms total)
T1DDC 008:827 JLINK_ReadMem (0xE000E400, 0x001C Bytes, ...) -- CPU is running -- CPU_ReadMem(28 bytes @ 0xE000E400) - Data: 00 00 00 00 00 00 00 00 00 00 00 00 00 00 00 00 ...  returns 0x00 (0001ms, 0733ms total)
T1DDC 008:828 JLINK_ReadMem (0xE000E41C, 0x0004 Bytes, ...) -- CPU is running -- CPU_ReadMem(4 bytes @ 0xE000E41C) - Data: 00 00 00 00  returns 0x00 (0001ms, 0734ms total)
T1DDC 008:830 JLINK_ReadMem (0x40000400, 0x0010 Bytes, ...) -- CPU is running -- CPU_ReadMem(16 bytes @ 0x40000400) - Data: 0D 00 00 00 00 00 00 00 00 00 00 00 01 00 00 00  returns 0x00 (0000ms, 0734ms total)
T1DDC 008:830 JLINK_ReadMem (0x40000410, 0x0004 Bytes, ...) -- CPU is running -- CPU_ReadMem(4 bytes @ 0x40000410) - Data: 1E 1E 00 00  returns 0x00 (0001ms, 0735ms total)
T1DDC 008:831 JLINK_ReadMem (0x40000418, 0x0014 Bytes, ...) -- CPU is running -- CPU_ReadMem(20 bytes @ 0x40000418) - Data: 01 01 00 00 01 01 00 00 11 11 00 00 29 51 00 00 ...  returns 0x00 (0001ms, 0736ms total)
T1DDC 008:832 JLINK_ReadMem (0x4000042C, 0x0004 Bytes, ...) -- CPU is running -- CPU_ReadMem(4 bytes @ 0x4000042C) - Data: FF FF 00 00  returns 0x00 (0001ms, 0737ms total)
T1DDC 008:833 JLINK_ReadMem (0x40000434, 0x000C Bytes, ...) -- CPU is running -- CPU_ReadMem(12 bytes @ 0x40000434) - Data: 64 00 00 00 3E 00 00 00 3C 00 00 00  returns 0x00 (0001ms, 0738ms total)
